
T1C1C 000:022 SEGGER J-Link V6.10i Log File (0000ms, 0013ms total)
T1C1C 000:022 DLL Compiled: Oct 25 2016 19:31:51 (0000ms, 0013ms total)
T1C1C 000:022 Logging started @ 2016-12-22 15:29 (0000ms, 0013ms total)
T1C1C 000:022 JLINK_SetWarnOutHandler(...) (0000ms, 0013ms total)
T1C1C 000:022 JLINK_OpenEx(...)
Firmware: J-Link OB-SAM3U128-V2-NordicSemi compiled Sep 26 2016 11:30:32
Hardware: V1.00
S/N: 682066672WEBSRV Webserver running on local port 19080 (0004ms, 0017ms total)
T1C1C 000:022   returns O.K. (0004ms, 0017ms total)
T1C1C 000:026 JLINK_SetErrorOutHandler(...) (0000ms, 0017ms total)
T1C1C 000:026 JLINK_ExecCommand("ProjectFile = "D:\Program Files\Nordic Semiconductor\Goertek_Glove\nRF52_Gzp_device_sdk13\pca10040\blank\arm5_no_packs\JLinkSettings.ini"", ...).   returns 0x00 (0084ms, 0101ms total)
T1C1C 000:112 JLINK_ExecCommand("Device = nRF52832_xxAA", ...). Device "NRF52832_XXAA" selected.  returns 0x00 (0002ms, 0103ms total)
T1C1C 000:114 JLINK_ExecCommand("DisableConnectionTimeout", ...).   returns 0x01 (0000ms, 0103ms total)
T1C1C 000:114 JLINK_GetHardwareVersion()  returns 0x2710 (0000ms, 0103ms total)
T1C1C 000:114 JLINK_GetDLLVersion()  returns 61009 (0000ms, 0103ms total)
T1C1C 000:114 JLINK_GetFirmwareString(...) (0000ms, 0103ms total)
T1C1C 000:117 JLINK_GetDLLVersion()  returns 61009 (0000ms, 0103ms total)
T1C1C 000:117 JLINK_GetCompileDateTime() (0000ms, 0103ms total)
T1C1C 000:119 JLINK_GetFirmwareString(...) (0000ms, 0103ms total)
T1C1C 000:120 JLINK_GetHardwareVersion()  returns 0x2710 (0000ms, 0103ms total)
T1C1C 000:135 JLINK_TIF_Select(JLINKARM_TIF_SWD)  returns 0x00 (0000ms, 0103ms total)
T1C1C 000:135 JLINK_SetSpeed(5000) (0000ms, 0103ms total)
T1C1C 000:135 JLINK_GetId() >0x108 TIF>Found SWD-DP with ID 0x2BA01477 >0x0D TIF> >0x28 TIF> >0x0D TIF> >0x28 TIF> >0x0D TIF> >0x28 TIF> >0x0D TIF> >0x28 TIF> >0x35 TIF> >0x0D TIF> >0x28 TIF> >0x0D TIF> >0x28 TIF> >0x35 TIF> >0x35 TIF> >0x35 TIF>AP-IDR: 0x24770011, Type: AHB-AP >0x0D TIF> >0x28 TIF> >0x0D TIF> >0x28 TIF> >0x0D TIF> >0x28 TIF> >0x35 TIF> >0x35 TIF> >0x0D TIF> >0x28 TIF> >0x35 TIF> >0x35 TIF>Found Cortex-M4 r0p1, Little endian. -- CPU_ReadMem(4 bytes @ 0xE000EDF0)
 -- CPU_WriteMem(4 bytes @ 0xE000EDF0) -- CPU_ReadMem(4 bytes @ 0xE0002000)FPUnit: 6 code (BP) slots and 2 literal slots -- CPU_ReadMem(4 bytes @ 0xE000EDFC) -- CPU_WriteMem(4 bytes @ 0xE000EDFC) -- CPU_ReadMem(4 bytes @ 0xE0001000) -- CPU_WriteMem(4 bytes @ 0xE0001000) -- CPU_ReadMem(4 bytes @ 0xE000ED88) -- CPU_WriteMem(4 bytes @ 0xE000ED88) -- CPU_ReadMem(4 bytes @ 0xE000ED88) -- CPU_WriteMem(4 bytes @ 0xE000ED88)CoreSight components:ROMTbl 0 @ E00FF000 -- CPU_ReadMem(16 bytes @ 0xE00FF000)
 -- CPU_ReadMem(16 bytes @ 0xE000EFF0) -- CPU_ReadMem(16 bytes @ 0xE000EFE0)ROMTbl 0 [0]: FFF0F000, CID: B105E00D, PID: 000BB00C SCS -- CPU_ReadMem(16 bytes @ 0xE0001FF0) -- CPU_ReadMem(16 bytes @ 0xE0001FE0)ROMTbl 0 [1]: FFF02000, CID: B105E00D, PID: 003BB002 DWT -- CPU_ReadMem(16 bytes @ 0xE0002FF0) -- CPU_ReadMem(16 bytes @ 0xE0002FE0)ROMTbl 0 [2]: FFF03000, CID: B105E00D, PID: 002BB003 FPB -- CPU_ReadMem(16 bytes @ 0xE0000FF0) -- CPU_ReadMem(16 bytes @ 0xE0000FE0)
ROMTbl 0 [3]: FFF01000, CID: B105E00D, PID: 003BB001 ITM -- CPU_ReadMem(16 bytes @ 0xE00FF010) -- CPU_ReadMem(16 bytes @ 0xE0040FF0) -- CPU_ReadMem(16 bytes @ 0xE0040FE0)ROMTbl 0 [4]: FFF41000, CID: B105900D, PID: 000BB9A1 TPIU -- CPU_ReadMem(16 bytes @ 0xE0041FF0) -- CPU_ReadMem(16 bytes @ 0xE0041FE0)ROMTbl 0 [5]: FFF42000, CID: B105900D, PID: 000BB925 ETM >0x35 TIF>  returns 0x2BA01477 (0043ms, 0146ms total)
T1C1C 000:179 JLINK_GetDLLVersion()  returns 61009 (0000ms, 0146ms total)
T1C1C 000:179 JLINK_CORE_GetFound()  returns 0xE0000FF (0000ms, 0146ms total)
T1C1C 000:179 JLINK_GetDebugInfo(0x100) -- Value=0xE00FF000  returns 0x00 (0000ms, 0146ms total)
T1C1C 000:181 JLINK_GetDebugInfo(0x100) -- Value=0xE00FF000  returns 0x00 (0000ms, 0146ms total)
T1C1C 000:181 JLINK_GetDebugInfo(0x101) -- Value=0xE0041000  returns 0x00 (0000ms, 0146ms total)
T1C1C 000:181 JLINK_GetDebugInfo(0x102) -- Value=0x00000000  returns 0x00 (0000ms, 0146ms total)
T1C1C 000:181 JLINK_GetDebugInfo(0x103) -- Value=0xE0040000  returns 0x00 (0000ms, 0146ms total)
T1C1C 000:181 JLINK_GetDebugInfo(0x104) -- Value=0xE0000000  returns 0x00 (0000ms, 0146ms total)
T1C1C 000:181 JLINK_GetDebugInfo(0x105) -- Value=0xE0001000  returns 0x00 (0000ms, 0146ms total)
T1C1C 000:181 JLINK_GetDebugInfo(0x106) -- Value=0xE0002000  returns 0x00 (0000ms, 0146ms total)
T1C1C 000:181 JLINK_GetDebugInfo(0x107) -- Value=0xE000E000  returns 0x00 (0000ms, 0146ms total)
T1C1C 000:181 JLINK_GetDebugInfo(0x10C) -- Value=0xE000EDF0  returns 0x00 (0000ms, 0146ms total)
T1C1C 000:181 JLINK_ReadMemU32(0xE000EF40, 0x0001 Items, ...) -- CPU is running -- CPU_ReadMem(4 bytes @ 0xE000EF40) - Data: 21 00 11 10  returns 0x01 (0000ms, 0146ms total)
T1C1C 000:181 JLINK_ReadMemU32(0xE000EF44, 0x0001 Items, ...) -- CPU is running -- CPU_ReadMem(4 bytes @ 0xE000EF44) - Data: 11 00 00 11  returns 0x01 (0001ms, 0147ms total)
T1C1C 000:182 JLINK_ReadMemU32(0xE000ED00, 0x0001 Items, ...) -- CPU is running -- CPU_ReadMem(4 bytes @ 0xE000ED00) - Data: 41 C2 0F 41  returns 0x01 (0000ms, 0147ms total)
T1C1C 000:182 JLINK_SetResetType(JLINKARM_RESET_TYPE_NORMAL)  returns JLINKARM_RESET_TYPE_NORMAL (0000ms, 0147ms total)
T1C1C 000:182 JLINK_Reset() -- CPU is running -- CPU_WriteMem(4 bytes @ 0xE000EDF0) -- CPU is running -- CPU_WriteMem(4 bytes @ 0xE000EDFC) >0x35 TIF> -- CPU is running -- CPU_WriteMem(4 bytes @ 0xE000ED0C) -- CPU is running -- CPU_ReadMem(4 bytes @ 0xE000EDF0) -- CPU is running -- CPU_ReadMem(4 bytes @ 0xE000EDF0) -- CPU is running -- CPU_WriteMem(4 bytes @ 0xE000EDF0) -- CPU is running -- CPU_WriteMem(4 bytes @ 0xE000EDFC) -- CPU is running -- CPU_ReadMem(4 bytes @ 0xE000EDF0)
 -- CPU_WriteMem(4 bytes @ 0xE0002000) -- CPU_ReadMem(4 bytes @ 0xE000EDFC) -- CPU_ReadMem(4 bytes @ 0xE0001000) (0023ms, 0170ms total)
T1C1C 000:205 JLINK_Halt()  returns 0x00 (0000ms, 0170ms total)
T1C1C 000:205 JLINK_IsHalted()  returns TRUE (0000ms, 0170ms total)
T1C1C 000:205 JLINK_ReadMemU32(0xE000EDF0, 0x0001 Items, ...) -- CPU_ReadMem(4 bytes @ 0xE000EDF0) - Data: 03 00 03 00  returns 0x01 (0001ms, 0171ms total)
T1C1C 000:206 JLINK_WriteU32(0xE000EDF0, 0xA05F0003) -- CPU_WriteMem(4 bytes @ 0xE000EDF0)  returns 0x00 (0000ms, 0171ms total)
T1C1C 000:206 JLINK_WriteU32(0xE000EDFC, 0x01000000) -- CPU_WriteMem(4 bytes @ 0xE000EDFC)  returns 0x00 (0001ms, 0172ms total)
T1C1C 000:217 JLINK_GetHWStatus(...)  returns 0x00 (0001ms, 0173ms total)
T1C1C 000:221 JLINK_GetNumBPUnits(Type = 0xFFFFFF00)  returns 0x06 (0000ms, 0173ms total)
T1C1C 000:221 JLINK_GetNumBPUnits(Type = 0xF0)  returns 0x2000 (0000ms, 0173ms total)
T1C1C 000:221 JLINK_GetNumWPUnits()  returns 0x04 (0000ms, 0173ms total)
T1C1C 000:225 JLINK_GetSpeed()  returns 0x3E8 (0000ms, 0173ms total)
T1C1C 000:237 JLINK_ReadMemU32(0xE000E004, 0x0001 Items, ...) -- CPU_ReadMem(4 bytes @ 0xE000E004) - Data: 01 00 00 00  returns 0x01 (0001ms, 0174ms total)
T1C1C 000:238 JLINK_ReadMemU32(0xE000E004, 0x0001 Items, ...) -- CPU_ReadMem(4 bytes @ 0xE000E004) - Data: 01 00 00 00  returns 0x01 (0001ms, 0175ms total)
T1C1C 000:239 JLINK_WriteMem(0xE0001000, 0x001C Bytes, ...) - Data: 01 00 00 00 00 00 00 00 00 00 00 00 00 00 00 00 ... -- CPU_WriteMem(28 bytes @ 0xE0001000)  returns 0x1C (0001ms, 0176ms total)
T1C1C 000:240 JLINK_ReadMem (0xE0001000, 0x001C Bytes, ...) -- CPU_ReadMem(28 bytes @ 0xE0001000) - Data: 01 00 00 40 00 00 00 00 00 00 00 00 00 00 00 00 ...  returns 0x00 (0001ms, 0177ms total)
T1C1C 000:241 JLINK_Halt()  returns 0x00 (0000ms, 0177ms total)
T1C1C 000:241 JLINK_IsHalted()  returns TRUE (0000ms, 0177ms total)
T1C1C 000:242 JLINK_WriteMem(0x20000000, 0x0228 Bytes, ...) - Data: 00 BE 0A E0 0D 78 2D 06 68 40 08 24 40 00 00 D3 ... -- CPU_WriteMem(552 bytes @ 0x20000000)  returns 0x228 (0009ms, 0186ms total)
T1C1C 000:251 JLINK_WriteReg(R0, 0x00000000)  returns 0x00 (0000ms, 0186ms total)
T1C1C 000:251 JLINK_WriteReg(R1, 0x03D09000)  returns 0x00 (0000ms, 0186ms total)
T1C1C 000:251 JLINK_WriteReg(R2, 0x00000001)  returns 0x00 (0000ms, 0186ms total)
T1C1C 000:251 JLINK_WriteReg(R3, 0x00000000)  returns 0x00 (0000ms, 0186ms total)
T1C1C 000:251 JLINK_WriteReg(R4, 0x00000000)  returns 0x00 (0000ms, 0186ms total)
T1C1C 000:251 JLINK_WriteReg(R5, 0x00000000)  returns 0x00 (0000ms, 0186ms total)
T1C1C 000:251 JLINK_WriteReg(R6, 0x00000000)  returns 0x00 (0000ms, 0186ms total)
T1C1C 000:251 JLINK_WriteReg(R7, 0x00000000)  returns 0x00 (0000ms, 0186ms total)
T1C1C 000:251 JLINK_WriteReg(R8, 0x00000000)  returns 0x00 (0000ms, 0186ms total)
T1C1C 000:251 JLINK_WriteReg(R9, 0x20000224)  returns 0x00 (0000ms, 0186ms total)
T1C1C 000:251 JLINK_WriteReg(R10, 0x00000000)  returns 0x00 (0000ms, 0186ms total)
T1C1C 000:251 JLINK_WriteReg(R11, 0x00000000)  returns 0x00 (0000ms, 0186ms total)
T1C1C 000:251 JLINK_WriteReg(R12, 0x00000000)  returns 0x00 (0000ms, 0186ms total)
T1C1C 000:251 JLINK_WriteReg(R13 (SP), 0x20002000)  returns 0x00 (0000ms, 0186ms total)
T1C1C 000:251 JLINK_WriteReg(R14, 0x20000001)  returns 0x00 (0000ms, 0186ms total)
T1C1C 000:251 JLINK_WriteReg(R15 (PC), 0x2000003C)  returns 0x00 (0000ms, 0186ms total)
T1C1C 000:251 JLINK_WriteReg(XPSR, 0x01000000)  returns 0x00 (0000ms, 0186ms total)
T1C1C 000:251 JLINK_WriteReg(MSP, 0x20002000)  returns 0x00 (0000ms, 0186ms total)
T1C1C 000:251 JLINK_WriteReg(PSP, 0x20002000)  returns 0x00 (0000ms, 0186ms total)
T1C1C 000:251 JLINK_WriteReg(CFBP, 0x00000000)  returns 0x00 (0000ms, 0186ms total)
T1C1C 000:251 JLINK_SetBPEx(Addr = 0x20000000, Type = 0xFFFFFFF2) -- CPU_ReadMem(2 bytes @ 0x20000000)  returns 0x00000001 (0001ms, 0187ms total)
T1C1C 000:252 JLINK_Go() -- CPU_WriteMem(2 bytes @ 0x20000000) -- CPU_ReadMem(4 bytes @ 0xE0001000) -- CPU_WriteMem(4 bytes @ 0xE0002008) -- CPU_WriteMem(4 bytes @ 0xE000200C) -- CPU_WriteMem(4 bytes @ 0xE0002010) -- CPU_WriteMem(4 bytes @ 0xE0002014) -- CPU_WriteMem(4 bytes @ 0xE0002018) -- CPU_WriteMem(4 bytes @ 0xE000201C) -- CPU_WriteMem(4 bytes @ 0xE0001004) (0007ms, 0194ms total)
T1C1C 000:259 JLINK_IsHalted() -- CPU_ReadMem(2 bytes @ 0x20000000)  returns TRUE (0007ms, 0201ms total)
T1C1C 000:266 JLINK_ReadReg(R15 (PC))  returns 0x20000000 (0000ms, 0194ms total)
T1C1C 000:266 JLINK_ClrBPEx(BPHandle = 0x00000001)  returns 0x00 (0000ms, 0194ms total)
T1C1C 000:266 JLINK_ReadReg(R0)  returns 0x00000000 (0000ms, 0194ms total)
T1C1C 000:267 JLINK_WriteReg(R0, 0x00000000)  returns 0x00 (0000ms, 0194ms total)
T1C1C 000:267 JLINK_WriteReg(R1, 0x00001000)  returns 0x00 (0000ms, 0194ms total)
T1C1C 000:267 JLINK_WriteReg(R2, 0x000000FF)  returns 0x00 (0000ms, 0194ms total)
T1C1C 000:267 JLINK_WriteReg(R3, 0x00000000)  returns 0x00 (0000ms, 0194ms total)
T1C1C 000:267 JLINK_WriteReg(R4, 0x00000000)  returns 0x00 (0000ms, 0194ms total)
T1C1C 000:267 JLINK_WriteReg(R5, 0x00000000)  returns 0x00 (0000ms, 0194ms total)
T1C1C 000:267 JLINK_WriteReg(R6, 0x00000000)  returns 0x00 (0000ms, 0194ms total)
T1C1C 000:267 JLINK_WriteReg(R7, 0x00000000)  returns 0x00 (0000ms, 0194ms total)
T1C1C 000:267 JLINK_WriteReg(R8, 0x00000000)  returns 0x00 (0000ms, 0194ms total)
T1C1C 000:267 JLINK_WriteReg(R9, 0x20000224)  returns 0x00 (0000ms, 0194ms total)
T1C1C 000:267 JLINK_WriteReg(R10, 0x00000000)  returns 0x00 (0000ms, 0194ms total)
T1C1C 000:267 JLINK_WriteReg(R11, 0x00000000)  returns 0x00 (0000ms, 0194ms total)
T1C1C 000:267 JLINK_WriteReg(R12, 0x00000000)  returns 0x00 (0000ms, 0194ms total)
T1C1C 000:267 JLINK_WriteReg(R13 (SP), 0x20002000)  returns 0x00 (0000ms, 0194ms total)
T1C1C 000:267 JLINK_WriteReg(R14, 0x20000001)  returns 0x00 (0000ms, 0194ms total)
T1C1C 000:267 JLINK_WriteReg(R15 (PC), 0x20000110)  returns 0x00 (0000ms, 0194ms total)
T1C1C 000:267 JLINK_WriteReg(XPSR, 0x01000000)  returns 0x00 (0000ms, 0194ms total)
T1C1C 000:267 JLINK_WriteReg(MSP, 0x20002000)  returns 0x00 (0000ms, 0194ms total)
T1C1C 000:267 JLINK_WriteReg(PSP, 0x20002000)  returns 0x00 (0000ms, 0194ms total)
T1C1C 000:267 JLINK_WriteReg(CFBP, 0x00000000)  returns 0x00 (0000ms, 0194ms total)
T1C1C 000:267 JLINK_SetBPEx(Addr = 0x20000000, Type = 0xFFFFFFF2)  returns 0x00000002 (0000ms, 0194ms total)
T1C1C 000:267 JLINK_Go() -- CPU_ReadMem(4 bytes @ 0xE0001000) (0004ms, 0198ms total)
T1C1C 000:271 JLINK_IsHalted() -- CPU_ReadMem(2 bytes @ 0x20000000)  returns TRUE (0007ms, 0205ms total)
T1C1C 000:278 JLINK_ReadReg(R15 (PC))  returns 0x20000000 (0000ms, 0198ms total)
T1C1C 000:278 JLINK_ClrBPEx(BPHandle = 0x00000002)  returns 0x00 (0000ms, 0198ms total)
T1C1C 000:278 JLINK_ReadReg(R0)  returns 0x00000001 (0000ms, 0198ms total)
T1C1C 000:278 JLINK_WriteReg(R0, 0x00000000)  returns 0x00 (0000ms, 0198ms total)
T1C1C 000:278 JLINK_WriteReg(R1, 0x00001000)  returns 0x00 (0000ms, 0198ms total)
T1C1C 000:278 JLINK_WriteReg(R2, 0x000000FF)  returns 0x00 (0000ms, 0198ms total)
T1C1C 000:278 JLINK_WriteReg(R3, 0x00000000)  returns 0x00 (0000ms, 0198ms total)
T1C1C 000:278 JLINK_WriteReg(R4, 0x00000000)  returns 0x00 (0000ms, 0198ms total)
T1C1C 000:278 JLINK_WriteReg(R5, 0x00000000)  returns 0x00 (0000ms, 0198ms total)
T1C1C 000:278 JLINK_WriteReg(R6, 0x00000000)  returns 0x00 (0000ms, 0198ms total)
T1C1C 000:278 JLINK_WriteReg(R7, 0x00000000)  returns 0x00 (0000ms, 0198ms total)
T1C1C 000:278 JLINK_WriteReg(R8, 0x00000000)  returns 0x00 (0000ms, 0198ms total)
T1C1C 000:278 JLINK_WriteReg(R9, 0x20000224)  returns 0x00 (0000ms, 0198ms total)
T1C1C 000:278 JLINK_WriteReg(R10, 0x00000000)  returns 0x00 (0000ms, 0198ms total)
T1C1C 000:278 JLINK_WriteReg(R11, 0x00000000)  returns 0x00 (0000ms, 0198ms total)
T1C1C 000:278 JLINK_WriteReg(R12, 0x00000000)  returns 0x00 (0000ms, 0198ms total)
T1C1C 000:278 JLINK_WriteReg(R13 (SP), 0x20002000)  returns 0x00 (0000ms, 0198ms total)
T1C1C 000:278 JLINK_WriteReg(R14, 0x20000001)  returns 0x00 (0000ms, 0198ms total)
T1C1C 000:278 JLINK_WriteReg(R15 (PC), 0x200000CE)  returns 0x00 (0000ms, 0198ms total)
T1C1C 000:278 JLINK_WriteReg(XPSR, 0x01000000)  returns 0x00 (0000ms, 0198ms total)
T1C1C 000:278 JLINK_WriteReg(MSP, 0x20002000)  returns 0x00 (0000ms, 0198ms total)
T1C1C 000:278 JLINK_WriteReg(PSP, 0x20002000)  returns 0x00 (0000ms, 0198ms total)
T1C1C 000:278 JLINK_WriteReg(CFBP, 0x00000000)  returns 0x00 (0000ms, 0198ms total)
T1C1C 000:278 JLINK_SetBPEx(Addr = 0x20000000, Type = 0xFFFFFFF2)  returns 0x00000003 (0000ms, 0198ms total)
T1C1C 000:278 JLINK_Go() -- CPU_ReadMem(4 bytes @ 0xE0001000) (0003ms, 0201ms total)
T1C1C 000:281 JLINK_IsHalted()  returns FALSE (0001ms, 0202ms total)
T1C1C 000:299 JLINK_IsHalted() -- CPU_ReadMem(2 bytes @ 0x20000000)  returns TRUE (0006ms, 0207ms total)
T1C1C 000:305 JLINK_ReadReg(R15 (PC))  returns 0x20000000 (0000ms, 0201ms total)
T1C1C 000:305 JLINK_ClrBPEx(BPHandle = 0x00000003)  returns 0x00 (0000ms, 0201ms total)
T1C1C 000:305 JLINK_ReadReg(R0)  returns 0x00000000 (0001ms, 0202ms total)
T1C1C 000:306 JLINK_WriteReg(R0, 0x00001000)  returns 0x00 (0000ms, 0202ms total)
T1C1C 000:306 JLINK_WriteReg(R1, 0x00001000)  returns 0x00 (0000ms, 0202ms total)
T1C1C 000:306 JLINK_WriteReg(R2, 0x000000FF)  returns 0x00 (0000ms, 0202ms total)
T1C1C 000:306 JLINK_WriteReg(R3, 0x00000000)  returns 0x00 (0000ms, 0202ms total)
T1C1C 000:306 JLINK_WriteReg(R4, 0x00000000)  returns 0x00 (0000ms, 0202ms total)
T1C1C 000:306 JLINK_WriteReg(R5, 0x00000000)  returns 0x00 (0000ms, 0202ms total)
T1C1C 000:306 JLINK_WriteReg(R6, 0x00000000)  returns 0x00 (0000ms, 0202ms total)
T1C1C 000:306 JLINK_WriteReg(R7, 0x00000000)  returns 0x00 (0000ms, 0202ms total)
T1C1C 000:306 JLINK_WriteReg(R8, 0x00000000)  returns 0x00 (0000ms, 0202ms total)
T1C1C 000:306 JLINK_WriteReg(R9, 0x20000224)  returns 0x00 (0000ms, 0202ms total)
T1C1C 000:306 JLINK_WriteReg(R10, 0x00000000)  returns 0x00 (0000ms, 0202ms total)
T1C1C 000:306 JLINK_WriteReg(R11, 0x00000000)  returns 0x00 (0000ms, 0202ms total)
T1C1C 000:306 JLINK_WriteReg(R12, 0x00000000)  returns 0x00 (0000ms, 0202ms total)
T1C1C 000:306 JLINK_WriteReg(R13 (SP), 0x20002000)  returns 0x00 (0000ms, 0202ms total)
T1C1C 000:306 JLINK_WriteReg(R14, 0x20000001)  returns 0x00 (0000ms, 0202ms total)
T1C1C 000:306 JLINK_WriteReg(R15 (PC), 0x20000110)  returns 0x00 (0000ms, 0202ms total)
T1C1C 000:306 JLINK_WriteReg(XPSR, 0x01000000)  returns 0x00 (0000ms, 0202ms total)
T1C1C 000:306 JLINK_WriteReg(MSP, 0x20002000)  returns 0x00 (0000ms, 0202ms total)
T1C1C 000:306 JLINK_WriteReg(PSP, 0x20002000)  returns 0x00 (0000ms, 0202ms total)
T1C1C 000:306 JLINK_WriteReg(CFBP, 0x00000000)  returns 0x00 (0000ms, 0202ms total)
T1C1C 000:306 JLINK_SetBPEx(Addr = 0x20000000, Type = 0xFFFFFFF2)  returns 0x00000004 (0000ms, 0202ms total)
T1C1C 000:306 JLINK_Go() -- CPU_ReadMem(4 bytes @ 0xE0001000) (0004ms, 0206ms total)
T1C1C 000:310 JLINK_IsHalted()  returns FALSE (0001ms, 0207ms total)
T1C1C 000:313 JLINK_IsHalted() -- CPU_ReadMem(2 bytes @ 0x20000000)  returns TRUE (0018ms, 0224ms total)
T1C1C 000:331 JLINK_ReadReg(R15 (PC))  returns 0x20000000 (0000ms, 0206ms total)
T1C1C 000:331 JLINK_ClrBPEx(BPHandle = 0x00000004)  returns 0x00 (0000ms, 0206ms total)
T1C1C 000:331 JLINK_ReadReg(R0)  returns 0x00000000 (0000ms, 0206ms total)
T1C1C 000:331 JLINK_WriteReg(R0, 0x00002000)  returns 0x00 (0000ms, 0206ms total)
T1C1C 000:331 JLINK_WriteReg(R1, 0x00001000)  returns 0x00 (0000ms, 0206ms total)
T1C1C 000:331 JLINK_WriteReg(R2, 0x000000FF)  returns 0x00 (0000ms, 0206ms total)
T1C1C 000:331 JLINK_WriteReg(R3, 0x00000000)  returns 0x00 (0000ms, 0206ms total)
T1C1C 000:331 JLINK_WriteReg(R4, 0x00000000)  returns 0x00 (0000ms, 0206ms total)
T1C1C 000:331 JLINK_WriteReg(R5, 0x00000000)  returns 0x00 (0000ms, 0206ms total)
T1C1C 000:331 JLINK_WriteReg(R6, 0x00000000)  returns 0x00 (0000ms, 0206ms total)
T1C1C 000:331 JLINK_WriteReg(R7, 0x00000000)  returns 0x00 (0000ms, 0206ms total)
T1C1C 000:331 JLINK_WriteReg(R8, 0x00000000)  returns 0x00 (0000ms, 0206ms total)
T1C1C 000:331 JLINK_WriteReg(R9, 0x20000224)  returns 0x00 (0000ms, 0206ms total)
T1C1C 000:331 JLINK_WriteReg(R10, 0x00000000)  returns 0x00 (0000ms, 0206ms total)
T1C1C 000:331 JLINK_WriteReg(R11, 0x00000000)  returns 0x00 (0000ms, 0206ms total)
T1C1C 000:331 JLINK_WriteReg(R12, 0x00000000)  returns 0x00 (0000ms, 0206ms total)
T1C1C 000:331 JLINK_WriteReg(R13 (SP), 0x20002000)  returns 0x00 (0000ms, 0206ms total)
T1C1C 000:331 JLINK_WriteReg(R14, 0x20000001)  returns 0x00 (0000ms, 0206ms total)
T1C1C 000:331 JLINK_WriteReg(R15 (PC), 0x20000110)  returns 0x00 (0000ms, 0206ms total)
T1C1C 000:331 JLINK_WriteReg(XPSR, 0x01000000)  returns 0x00 (0000ms, 0206ms total)
T1C1C 000:331 JLINK_WriteReg(MSP, 0x20002000)  returns 0x00 (0000ms, 0206ms total)
T1C1C 000:331 JLINK_WriteReg(PSP, 0x20002000)  returns 0x00 (0000ms, 0206ms total)
T1C1C 000:331 JLINK_WriteReg(CFBP, 0x00000000)  returns 0x00 (0000ms, 0206ms total)
T1C1C 000:331 JLINK_SetBPEx(Addr = 0x20000000, Type = 0xFFFFFFF2)  returns 0x00000005 (0000ms, 0206ms total)
T1C1C 000:331 JLINK_Go() -- CPU_ReadMem(4 bytes @ 0xE0001000) (0003ms, 0209ms total)
T1C1C 000:334 JLINK_IsHalted() -- CPU_ReadMem(2 bytes @ 0x20000000)  returns TRUE (0007ms, 0216ms total)
T1C1C 000:341 JLINK_ReadReg(R15 (PC))  returns 0x20000000 (0000ms, 0209ms total)
T1C1C 000:341 JLINK_ClrBPEx(BPHandle = 0x00000005)  returns 0x00 (0000ms, 0209ms total)
T1C1C 000:341 JLINK_ReadReg(R0)  returns 0x00000001 (0000ms, 0209ms total)
T1C1C 000:341 JLINK_WriteReg(R0, 0x00002000)  returns 0x00 (0000ms, 0209ms total)
T1C1C 000:341 JLINK_WriteReg(R1, 0x00001000)  returns 0x00 (0000ms, 0209ms total)
T1C1C 000:341 JLINK_WriteReg(R2, 0x000000FF)  returns 0x00 (0000ms, 0209ms total)
T1C1C 000:341 JLINK_WriteReg(R3, 0x00000000)  returns 0x00 (0000ms, 0209ms total)
T1C1C 000:341 JLINK_WriteReg(R4, 0x00000000)  returns 0x00 (0000ms, 0209ms total)
T1C1C 000:341 JLINK_WriteReg(R5, 0x00000000)  returns 0x00 (0000ms, 0209ms total)
T1C1C 000:341 JLINK_WriteReg(R6, 0x00000000)  returns 0x00 (0000ms, 0209ms total)
T1C1C 000:341 JLINK_WriteReg(R7, 0x00000000)  returns 0x00 (0000ms, 0209ms total)
T1C1C 000:341 JLINK_WriteReg(R8, 0x00000000)  returns 0x00 (0000ms, 0209ms total)
T1C1C 000:341 JLINK_WriteReg(R9, 0x20000224)  returns 0x00 (0000ms, 0209ms total)
T1C1C 000:341 JLINK_WriteReg(R10, 0x00000000)  returns 0x00 (0000ms, 0209ms total)
T1C1C 000:341 JLINK_WriteReg(R11, 0x00000000)  returns 0x00 (0000ms, 0209ms total)
T1C1C 000:341 JLINK_WriteReg(R12, 0x00000000)  returns 0x00 (0000ms, 0209ms total)
T1C1C 000:341 JLINK_WriteReg(R13 (SP), 0x20002000)  returns 0x00 (0000ms, 0209ms total)
T1C1C 000:341 JLINK_WriteReg(R14, 0x20000001)  returns 0x00 (0000ms, 0209ms total)
T1C1C 000:341 JLINK_WriteReg(R15 (PC), 0x200000CE)  returns 0x00 (0000ms, 0209ms total)
T1C1C 000:341 JLINK_WriteReg(XPSR, 0x01000000)  returns 0x00 (0000ms, 0209ms total)
T1C1C 000:341 JLINK_WriteReg(MSP, 0x20002000)  returns 0x00 (0000ms, 0209ms total)
T1C1C 000:341 JLINK_WriteReg(PSP, 0x20002000)  returns 0x00 (0000ms, 0209ms total)
T1C1C 000:341 JLINK_WriteReg(CFBP, 0x00000000)  returns 0x00 (0000ms, 0209ms total)
T1C1C 000:341 JLINK_SetBPEx(Addr = 0x20000000, Type = 0xFFFFFFF2)  returns 0x00000006 (0000ms, 0209ms total)
T1C1C 000:341 JLINK_Go() -- CPU_ReadMem(4 bytes @ 0xE0001000) (0003ms, 0212ms total)
T1C1C 000:344 JLINK_IsHalted()  returns FALSE (0000ms, 0212ms total)
T1C1C 000:347 JLINK_IsHalted() -- CPU_ReadMem(2 bytes @ 0x20000000)  returns TRUE (0007ms, 0219ms total)
T1C1C 000:354 JLINK_ReadReg(R15 (PC))  returns 0x20000000 (0000ms, 0212ms total)
T1C1C 000:354 JLINK_ClrBPEx(BPHandle = 0x00000006)  returns 0x00 (0000ms, 0212ms total)
T1C1C 000:354 JLINK_ReadReg(R0)  returns 0x00000000 (0000ms, 0212ms total)
T1C1C 000:354 JLINK_WriteReg(R0, 0x00003000)  returns 0x00 (0000ms, 0212ms total)
T1C1C 000:354 JLINK_WriteReg(R1, 0x00001000)  returns 0x00 (0000ms, 0212ms total)
T1C1C 000:354 JLINK_WriteReg(R2, 0x000000FF)  returns 0x00 (0000ms, 0212ms total)
T1C1C 000:354 JLINK_WriteReg(R3, 0x00000000)  returns 0x00 (0000ms, 0212ms total)
T1C1C 000:354 JLINK_WriteReg(R4, 0x00000000)  returns 0x00 (0000ms, 0212ms total)
T1C1C 000:354 JLINK_WriteReg(R5, 0x00000000)  returns 0x00 (0000ms, 0212ms total)
T1C1C 000:354 JLINK_WriteReg(R6, 0x00000000)  returns 0x00 (0000ms, 0212ms total)
T1C1C 000:354 JLINK_WriteReg(R7, 0x00000000)  returns 0x00 (0000ms, 0212ms total)
T1C1C 000:354 JLINK_WriteReg(R8, 0x00000000)  returns 0x00 (0000ms, 0212ms total)
T1C1C 000:354 JLINK_WriteReg(R9, 0x20000224)  returns 0x00 (0000ms, 0212ms total)
T1C1C 000:354 JLINK_WriteReg(R10, 0x00000000)  returns 0x00 (0000ms, 0212ms total)
T1C1C 000:354 JLINK_WriteReg(R11, 0x00000000)  returns 0x00 (0000ms, 0212ms total)
T1C1C 000:354 JLINK_WriteReg(R12, 0x00000000)  returns 0x00 (0000ms, 0212ms total)
T1C1C 000:354 JLINK_WriteReg(R13 (SP), 0x20002000)  returns 0x00 (0000ms, 0212ms total)
T1C1C 000:354 JLINK_WriteReg(R14, 0x20000001)  returns 0x00 (0000ms, 0212ms total)
T1C1C 000:354 JLINK_WriteReg(R15 (PC), 0x20000110)  returns 0x00 (0000ms, 0212ms total)
T1C1C 000:354 JLINK_WriteReg(XPSR, 0x01000000)  returns 0x00 (0000ms, 0212ms total)
T1C1C 000:354 JLINK_WriteReg(MSP, 0x20002000)  returns 0x00 (0000ms, 0212ms total)
T1C1C 000:354 JLINK_WriteReg(PSP, 0x20002000)  returns 0x00 (0000ms, 0212ms total)
T1C1C 000:354 JLINK_WriteReg(CFBP, 0x00000000)  returns 0x00 (0000ms, 0212ms total)
T1C1C 000:354 JLINK_SetBPEx(Addr = 0x20000000, Type = 0xFFFFFFF2)  returns 0x00000007 (0000ms, 0212ms total)
T1C1C 000:354 JLINK_Go() -- CPU_ReadMem(4 bytes @ 0xE0001000) (0004ms, 0216ms total)
T1C1C 000:358 JLINK_IsHalted() -- CPU_ReadMem(2 bytes @ 0x20000000)  returns TRUE (0007ms, 0223ms total)
T1C1C 000:365 JLINK_ReadReg(R15 (PC))  returns 0x20000000 (0000ms, 0216ms total)
T1C1C 000:365 JLINK_ClrBPEx(BPHandle = 0x00000007)  returns 0x00 (0000ms, 0216ms total)
T1C1C 000:365 JLINK_ReadReg(R0)  returns 0x00000001 (0000ms, 0216ms total)
T1C1C 000:365 JLINK_WriteReg(R0, 0x00003000)  returns 0x00 (0000ms, 0216ms total)
T1C1C 000:365 JLINK_WriteReg(R1, 0x00001000)  returns 0x00 (0000ms, 0216ms total)
T1C1C 000:365 JLINK_WriteReg(R2, 0x000000FF)  returns 0x00 (0000ms, 0216ms total)
T1C1C 000:365 JLINK_WriteReg(R3, 0x00000000)  returns 0x00 (0000ms, 0216ms total)
T1C1C 000:365 JLINK_WriteReg(R4, 0x00000000)  returns 0x00 (0000ms, 0216ms total)
T1C1C 000:365 JLINK_WriteReg(R5, 0x00000000)  returns 0x00 (0000ms, 0216ms total)
T1C1C 000:365 JLINK_WriteReg(R6, 0x00000000)  returns 0x00 (0000ms, 0216ms total)
T1C1C 000:365 JLINK_WriteReg(R7, 0x00000000)  returns 0x00 (0000ms, 0216ms total)
T1C1C 000:365 JLINK_WriteReg(R8, 0x00000000)  returns 0x00 (0000ms, 0216ms total)
T1C1C 000:365 JLINK_WriteReg(R9, 0x20000224)  returns 0x00 (0000ms, 0216ms total)
T1C1C 000:365 JLINK_WriteReg(R10, 0x00000000)  returns 0x00 (0000ms, 0216ms total)
T1C1C 000:365 JLINK_WriteReg(R11, 0x00000000)  returns 0x00 (0000ms, 0216ms total)
T1C1C 000:365 JLINK_WriteReg(R12, 0x00000000)  returns 0x00 (0000ms, 0216ms total)
T1C1C 000:365 JLINK_WriteReg(R13 (SP), 0x20002000)  returns 0x00 (0000ms, 0216ms total)
T1C1C 000:365 JLINK_WriteReg(R14, 0x20000001)  returns 0x00 (0000ms, 0216ms total)
T1C1C 000:365 JLINK_WriteReg(R15 (PC), 0x200000CE)  returns 0x00 (0000ms, 0216ms total)
T1C1C 000:365 JLINK_WriteReg(XPSR, 0x01000000)  returns 0x00 (0000ms, 0216ms total)
T1C1C 000:365 JLINK_WriteReg(MSP, 0x20002000)  returns 0x00 (0000ms, 0216ms total)
T1C1C 000:365 JLINK_WriteReg(PSP, 0x20002000)  returns 0x00 (0000ms, 0216ms total)
T1C1C 000:365 JLINK_WriteReg(CFBP, 0x00000000)  returns 0x00 (0000ms, 0216ms total)
T1C1C 000:365 JLINK_SetBPEx(Addr = 0x20000000, Type = 0xFFFFFFF2)  returns 0x00000008 (0000ms, 0216ms total)
T1C1C 000:365 JLINK_Go() -- CPU_ReadMem(4 bytes @ 0xE0001000) (0002ms, 0218ms total)
T1C1C 000:367 JLINK_IsHalted()  returns FALSE (0001ms, 0219ms total)
T1C1C 000:372 JLINK_IsHalted() -- CPU_ReadMem(2 bytes @ 0x20000000)  returns TRUE (0007ms, 0225ms total)
T1C1C 000:379 JLINK_ReadReg(R15 (PC))  returns 0x20000000 (0000ms, 0218ms total)
T1C1C 000:379 JLINK_ClrBPEx(BPHandle = 0x00000008)  returns 0x00 (0000ms, 0218ms total)
T1C1C 000:379 JLINK_ReadReg(R0)  returns 0x00000000 (0000ms, 0218ms total)
T1C1C 000:381 JLINK_WriteReg(R0, 0x00004000)  returns 0x00 (0000ms, 0218ms total)
T1C1C 000:381 JLINK_WriteReg(R1, 0x00001000)  returns 0x00 (0000ms, 0218ms total)
T1C1C 000:381 JLINK_WriteReg(R2, 0x000000FF)  returns 0x00 (0000ms, 0218ms total)
T1C1C 000:381 JLINK_WriteReg(R3, 0x00000000)  returns 0x00 (0000ms, 0218ms total)
T1C1C 000:381 JLINK_WriteReg(R4, 0x00000000)  returns 0x00 (0000ms, 0218ms total)
T1C1C 000:381 JLINK_WriteReg(R5, 0x00000000)  returns 0x00 (0000ms, 0218ms total)
T1C1C 000:381 JLINK_WriteReg(R6, 0x00000000)  returns 0x00 (0000ms, 0218ms total)
T1C1C 000:381 JLINK_WriteReg(R7, 0x00000000)  returns 0x00 (0000ms, 0218ms total)
T1C1C 000:381 JLINK_WriteReg(R8, 0x00000000)  returns 0x00 (0000ms, 0218ms total)
T1C1C 000:381 JLINK_WriteReg(R9, 0x20000224)  returns 0x00 (0000ms, 0218ms total)
T1C1C 000:381 JLINK_WriteReg(R10, 0x00000000)  returns 0x00 (0000ms, 0218ms total)
T1C1C 000:381 JLINK_WriteReg(R11, 0x00000000)  returns 0x00 (0000ms, 0218ms total)
T1C1C 000:381 JLINK_WriteReg(R12, 0x00000000)  returns 0x00 (0000ms, 0218ms total)
T1C1C 000:381 JLINK_WriteReg(R13 (SP), 0x20002000)  returns 0x00 (0000ms, 0218ms total)
T1C1C 000:381 JLINK_WriteReg(R14, 0x20000001)  returns 0x00 (0000ms, 0218ms total)
T1C1C 000:381 JLINK_WriteReg(R15 (PC), 0x20000110)  returns 0x00 (0000ms, 0218ms total)
T1C1C 000:381 JLINK_WriteReg(XPSR, 0x01000000)  returns 0x00 (0000ms, 0218ms total)
T1C1C 000:381 JLINK_WriteReg(MSP, 0x20002000)  returns 0x00 (0000ms, 0218ms total)
T1C1C 000:381 JLINK_WriteReg(PSP, 0x20002000)  returns 0x00 (0000ms, 0218ms total)
T1C1C 000:381 JLINK_WriteReg(CFBP, 0x00000000)  returns 0x00 (0000ms, 0218ms total)
T1C1C 000:381 JLINK_SetBPEx(Addr = 0x20000000, Type = 0xFFFFFFF2)  returns 0x00000009 (0000ms, 0218ms total)
T1C1C 000:381 JLINK_Go() -- CPU_ReadMem(4 bytes @ 0xE0001000) (0003ms, 0221ms total)
T1C1C 000:384 JLINK_IsHalted() -- CPU_ReadMem(2 bytes @ 0x20000000)  returns TRUE (0006ms, 0227ms total)
T1C1C 000:390 JLINK_ReadReg(R15 (PC))  returns 0x20000000 (0000ms, 0221ms total)
T1C1C 000:390 JLINK_ClrBPEx(BPHandle = 0x00000009)  returns 0x00 (0000ms, 0221ms total)
T1C1C 000:390 JLINK_ReadReg(R0)  returns 0x00000001 (0000ms, 0221ms total)
T1C1C 000:390 JLINK_WriteReg(R0, 0x00004000)  returns 0x00 (0000ms, 0221ms total)
T1C1C 000:390 JLINK_WriteReg(R1, 0x00001000)  returns 0x00 (0000ms, 0221ms total)
T1C1C 000:390 JLINK_WriteReg(R2, 0x000000FF)  returns 0x00 (0000ms, 0221ms total)
T1C1C 000:390 JLINK_WriteReg(R3, 0x00000000)  returns 0x00 (0000ms, 0221ms total)
T1C1C 000:390 JLINK_WriteReg(R4, 0x00000000)  returns 0x00 (0000ms, 0221ms total)
T1C1C 000:390 JLINK_WriteReg(R5, 0x00000000)  returns 0x00 (0000ms, 0221ms total)
T1C1C 000:390 JLINK_WriteReg(R6, 0x00000000)  returns 0x00 (0000ms, 0221ms total)
T1C1C 000:390 JLINK_WriteReg(R7, 0x00000000)  returns 0x00 (0000ms, 0221ms total)
T1C1C 000:390 JLINK_WriteReg(R8, 0x00000000)  returns 0x00 (0000ms, 0221ms total)
T1C1C 000:391 JLINK_WriteReg(R9, 0x20000224)  returns 0x00 (0000ms, 0221ms total)
T1C1C 000:391 JLINK_WriteReg(R10, 0x00000000)  returns 0x00 (0000ms, 0221ms total)
T1C1C 000:391 JLINK_WriteReg(R11, 0x00000000)  returns 0x00 (0000ms, 0221ms total)
T1C1C 000:391 JLINK_WriteReg(R12, 0x00000000)  returns 0x00 (0000ms, 0221ms total)
T1C1C 000:391 JLINK_WriteReg(R13 (SP), 0x20002000)  returns 0x00 (0000ms, 0221ms total)
T1C1C 000:391 JLINK_WriteReg(R14, 0x20000001)  returns 0x00 (0000ms, 0221ms total)
T1C1C 000:391 JLINK_WriteReg(R15 (PC), 0x200000CE)  returns 0x00 (0000ms, 0221ms total)
T1C1C 000:391 JLINK_WriteReg(XPSR, 0x01000000)  returns 0x00 (0000ms, 0221ms total)
T1C1C 000:391 JLINK_WriteReg(MSP, 0x20002000)  returns 0x00 (0000ms, 0221ms total)
T1C1C 000:391 JLINK_WriteReg(PSP, 0x20002000)  returns 0x00 (0000ms, 0221ms total)
T1C1C 000:391 JLINK_WriteReg(CFBP, 0x00000000)  returns 0x00 (0000ms, 0221ms total)
T1C1C 000:391 JLINK_SetBPEx(Addr = 0x20000000, Type = 0xFFFFFFF2)  returns 0x0000000A (0000ms, 0221ms total)
T1C1C 000:391 JLINK_Go() -- CPU_ReadMem(4 bytes @ 0xE0001000) (0003ms, 0224ms total)
T1C1C 000:394 JLINK_IsHalted()  returns FALSE (0000ms, 0224ms total)
T1C1C 000:397 JLINK_IsHalted() -- CPU_ReadMem(2 bytes @ 0x20000000)  returns TRUE (0007ms, 0231ms total)
T1C1C 000:404 JLINK_ReadReg(R15 (PC))  returns 0x20000000 (0000ms, 0224ms total)
T1C1C 000:404 JLINK_ClrBPEx(BPHandle = 0x0000000A)  returns 0x00 (0000ms, 0224ms total)
T1C1C 000:404 JLINK_ReadReg(R0)  returns 0x00000000 (0000ms, 0224ms total)
T1C1C 000:404 JLINK_WriteReg(R0, 0x00005000)  returns 0x00 (0000ms, 0224ms total)
T1C1C 000:404 JLINK_WriteReg(R1, 0x00001000)  returns 0x00 (0000ms, 0224ms total)
T1C1C 000:404 JLINK_WriteReg(R2, 0x000000FF)  returns 0x00 (0000ms, 0224ms total)
T1C1C 000:404 JLINK_WriteReg(R3, 0x00000000)  returns 0x00 (0000ms, 0224ms total)
T1C1C 000:404 JLINK_WriteReg(R4, 0x00000000)  returns 0x00 (0000ms, 0224ms total)
T1C1C 000:404 JLINK_WriteReg(R5, 0x00000000)  returns 0x00 (0000ms, 0224ms total)
T1C1C 000:404 JLINK_WriteReg(R6, 0x00000000)  returns 0x00 (0000ms, 0224ms total)
T1C1C 000:404 JLINK_WriteReg(R7, 0x00000000)  returns 0x00 (0000ms, 0224ms total)
T1C1C 000:404 JLINK_WriteReg(R8, 0x00000000)  returns 0x00 (0000ms, 0224ms total)
T1C1C 000:404 JLINK_WriteReg(R9, 0x20000224)  returns 0x00 (0000ms, 0224ms total)
T1C1C 000:404 JLINK_WriteReg(R10, 0x00000000)  returns 0x00 (0000ms, 0224ms total)
T1C1C 000:404 JLINK_WriteReg(R11, 0x00000000)  returns 0x00 (0000ms, 0224ms total)
T1C1C 000:404 JLINK_WriteReg(R12, 0x00000000)  returns 0x00 (0000ms, 0224ms total)
T1C1C 000:404 JLINK_WriteReg(R13 (SP), 0x20002000)  returns 0x00 (0000ms, 0224ms total)
T1C1C 000:404 JLINK_WriteReg(R14, 0x20000001)  returns 0x00 (0000ms, 0224ms total)
T1C1C 000:404 JLINK_WriteReg(R15 (PC), 0x20000110)  returns 0x00 (0000ms, 0224ms total)
T1C1C 000:404 JLINK_WriteReg(XPSR, 0x01000000)  returns 0x00 (0000ms, 0224ms total)
T1C1C 000:404 JLINK_WriteReg(MSP, 0x20002000)  returns 0x00 (0000ms, 0224ms total)
T1C1C 000:404 JLINK_WriteReg(PSP, 0x20002000)  returns 0x00 (0000ms, 0224ms total)
T1C1C 000:404 JLINK_WriteReg(CFBP, 0x00000000)  returns 0x00 (0000ms, 0224ms total)
T1C1C 000:404 JLINK_SetBPEx(Addr = 0x20000000, Type = 0xFFFFFFF2)  returns 0x0000000B (0000ms, 0224ms total)
T1C1C 000:404 JLINK_Go() -- CPU_ReadMem(4 bytes @ 0xE0001000) (0004ms, 0228ms total)
T1C1C 000:408 JLINK_IsHalted() -- CPU_ReadMem(2 bytes @ 0x20000000)  returns TRUE (0008ms, 0236ms total)
T1C1C 000:416 JLINK_ReadReg(R15 (PC))  returns 0x20000000 (0000ms, 0228ms total)
T1C1C 000:416 JLINK_ClrBPEx(BPHandle = 0x0000000B)  returns 0x00 (0000ms, 0228ms total)
T1C1C 000:416 JLINK_ReadReg(R0)  returns 0x00000001 (0000ms, 0228ms total)
T1C1C 000:416 JLINK_WriteReg(R0, 0x00005000)  returns 0x00 (0000ms, 0228ms total)
T1C1C 000:416 JLINK_WriteReg(R1, 0x00001000)  returns 0x00 (0000ms, 0228ms total)
T1C1C 000:416 JLINK_WriteReg(R2, 0x000000FF)  returns 0x00 (0000ms, 0228ms total)
T1C1C 000:416 JLINK_WriteReg(R3, 0x00000000)  returns 0x00 (0000ms, 0228ms total)
T1C1C 000:416 JLINK_WriteReg(R4, 0x00000000)  returns 0x00 (0000ms, 0228ms total)
T1C1C 000:416 JLINK_WriteReg(R5, 0x00000000)  returns 0x00 (0000ms, 0228ms total)
T1C1C 000:416 JLINK_WriteReg(R6, 0x00000000)  returns 0x00 (0000ms, 0228ms total)
T1C1C 000:416 JLINK_WriteReg(R7, 0x00000000)  returns 0x00 (0000ms, 0228ms total)
T1C1C 000:416 JLINK_WriteReg(R8, 0x00000000)  returns 0x00 (0000ms, 0228ms total)
T1C1C 000:416 JLINK_WriteReg(R9, 0x20000224)  returns 0x00 (0000ms, 0228ms total)
T1C1C 000:416 JLINK_WriteReg(R10, 0x00000000)  returns 0x00 (0000ms, 0228ms total)
T1C1C 000:416 JLINK_WriteReg(R11, 0x00000000)  returns 0x00 (0000ms, 0228ms total)
T1C1C 000:416 JLINK_WriteReg(R12, 0x00000000)  returns 0x00 (0000ms, 0228ms total)
T1C1C 000:416 JLINK_WriteReg(R13 (SP), 0x20002000)  returns 0x00 (0000ms, 0228ms total)
T1C1C 000:416 JLINK_WriteReg(R14, 0x20000001)  returns 0x00 (0000ms, 0228ms total)
T1C1C 000:416 JLINK_WriteReg(R15 (PC), 0x200000CE)  returns 0x00 (0000ms, 0228ms total)
T1C1C 000:416 JLINK_WriteReg(XPSR, 0x01000000)  returns 0x00 (0000ms, 0228ms total)
T1C1C 000:416 JLINK_WriteReg(MSP, 0x20002000)  returns 0x00 (0000ms, 0228ms total)
T1C1C 000:416 JLINK_WriteReg(PSP, 0x20002000)  returns 0x00 (0000ms, 0228ms total)
T1C1C 000:416 JLINK_WriteReg(CFBP, 0x00000000)  returns 0x00 (0000ms, 0228ms total)
T1C1C 000:416 JLINK_SetBPEx(Addr = 0x20000000, Type = 0xFFFFFFF2)  returns 0x0000000C (0000ms, 0228ms total)
T1C1C 000:416 JLINK_Go() -- CPU_ReadMem(4 bytes @ 0xE0001000) (0003ms, 0231ms total)
T1C1C 000:419 JLINK_IsHalted()  returns FALSE (0001ms, 0232ms total)
T1C1C 000:424 JLINK_IsHalted() -- CPU_ReadMem(2 bytes @ 0x20000000)  returns TRUE (0007ms, 0238ms total)
T1C1C 000:431 JLINK_ReadReg(R15 (PC))  returns 0x20000000 (0000ms, 0231ms total)
T1C1C 000:431 JLINK_ClrBPEx(BPHandle = 0x0000000C)  returns 0x00 (0000ms, 0231ms total)
T1C1C 000:431 JLINK_ReadReg(R0)  returns 0x00000000 (0000ms, 0231ms total)
T1C1C 000:431 JLINK_WriteReg(R0, 0x00006000)  returns 0x00 (0000ms, 0231ms total)
T1C1C 000:431 JLINK_WriteReg(R1, 0x00001000)  returns 0x00 (0000ms, 0231ms total)
T1C1C 000:431 JLINK_WriteReg(R2, 0x000000FF)  returns 0x00 (0000ms, 0231ms total)
T1C1C 000:431 JLINK_WriteReg(R3, 0x00000000)  returns 0x00 (0000ms, 0231ms total)
T1C1C 000:431 JLINK_WriteReg(R4, 0x00000000)  returns 0x00 (0000ms, 0231ms total)
T1C1C 000:431 JLINK_WriteReg(R5, 0x00000000)  returns 0x00 (0000ms, 0231ms total)
T1C1C 000:431 JLINK_WriteReg(R6, 0x00000000)  returns 0x00 (0000ms, 0231ms total)
T1C1C 000:431 JLINK_WriteReg(R7, 0x00000000)  returns 0x00 (0000ms, 0231ms total)
T1C1C 000:431 JLINK_WriteReg(R8, 0x00000000)  returns 0x00 (0000ms, 0231ms total)
T1C1C 000:431 JLINK_WriteReg(R9, 0x20000224)  returns 0x00 (0000ms, 0231ms total)
T1C1C 000:431 JLINK_WriteReg(R10, 0x00000000)  returns 0x00 (0000ms, 0231ms total)
T1C1C 000:431 JLINK_WriteReg(R11, 0x00000000)  returns 0x00 (0000ms, 0231ms total)
T1C1C 000:431 JLINK_WriteReg(R12, 0x00000000)  returns 0x00 (0000ms, 0231ms total)
T1C1C 000:431 JLINK_WriteReg(R13 (SP), 0x20002000)  returns 0x00 (0000ms, 0231ms total)
T1C1C 000:431 JLINK_WriteReg(R14, 0x20000001)  returns 0x00 (0000ms, 0231ms total)
T1C1C 000:431 JLINK_WriteReg(R15 (PC), 0x20000110)  returns 0x00 (0000ms, 0231ms total)
T1C1C 000:432 JLINK_WriteReg(XPSR, 0x01000000)  returns 0x00 (0000ms, 0231ms total)
T1C1C 000:432 JLINK_WriteReg(MSP, 0x20002000)  returns 0x00 (0000ms, 0231ms total)
T1C1C 000:432 JLINK_WriteReg(PSP, 0x20002000)  returns 0x00 (0000ms, 0231ms total)
T1C1C 000:432 JLINK_WriteReg(CFBP, 0x00000000)  returns 0x00 (0000ms, 0231ms total)
T1C1C 000:432 JLINK_SetBPEx(Addr = 0x20000000, Type = 0xFFFFFFF2)  returns 0x0000000D (0000ms, 0231ms total)
T1C1C 000:432 JLINK_Go() -- CPU_ReadMem(4 bytes @ 0xE0001000) (0002ms, 0233ms total)
T1C1C 000:434 JLINK_IsHalted() -- CPU_ReadMem(2 bytes @ 0x20000000)  returns TRUE (0007ms, 0240ms total)
T1C1C 000:441 JLINK_ReadReg(R15 (PC))  returns 0x20000000 (0000ms, 0233ms total)
T1C1C 000:441 JLINK_ClrBPEx(BPHandle = 0x0000000D)  returns 0x00 (0000ms, 0233ms total)
T1C1C 000:441 JLINK_ReadReg(R0)  returns 0x00000001 (0000ms, 0233ms total)
T1C1C 000:441 JLINK_WriteReg(R0, 0x00006000)  returns 0x00 (0000ms, 0233ms total)
T1C1C 000:441 JLINK_WriteReg(R1, 0x00001000)  returns 0x00 (0001ms, 0234ms total)
T1C1C 000:442 JLINK_WriteReg(R2, 0x000000FF)  returns 0x00 (0000ms, 0234ms total)
T1C1C 000:442 JLINK_WriteReg(R3, 0x00000000)  returns 0x00 (0000ms, 0234ms total)
T1C1C 000:442 JLINK_WriteReg(R4, 0x00000000)  returns 0x00 (0000ms, 0234ms total)
T1C1C 000:442 JLINK_WriteReg(R5, 0x00000000)  returns 0x00 (0000ms, 0234ms total)
T1C1C 000:442 JLINK_WriteReg(R6, 0x00000000)  returns 0x00 (0000ms, 0234ms total)
T1C1C 000:442 JLINK_WriteReg(R7, 0x00000000)  returns 0x00 (0000ms, 0234ms total)
T1C1C 000:442 JLINK_WriteReg(R8, 0x00000000)  returns 0x00 (0000ms, 0234ms total)
T1C1C 000:442 JLINK_WriteReg(R9, 0x20000224)  returns 0x00 (0000ms, 0234ms total)
T1C1C 000:442 JLINK_WriteReg(R10, 0x00000000)  returns 0x00 (0000ms, 0234ms total)
T1C1C 000:442 JLINK_WriteReg(R11, 0x00000000)  returns 0x00 (0000ms, 0234ms total)
T1C1C 000:442 JLINK_WriteReg(R12, 0x00000000)  returns 0x00 (0000ms, 0234ms total)
T1C1C 000:442 JLINK_WriteReg(R13 (SP), 0x20002000)  returns 0x00 (0000ms, 0234ms total)
T1C1C 000:442 JLINK_WriteReg(R14, 0x20000001)  returns 0x00 (0000ms, 0234ms total)
T1C1C 000:442 JLINK_WriteReg(R15 (PC), 0x200000CE)  returns 0x00 (0000ms, 0234ms total)
T1C1C 000:442 JLINK_WriteReg(XPSR, 0x01000000)  returns 0x00 (0000ms, 0234ms total)
T1C1C 000:442 JLINK_WriteReg(MSP, 0x20002000)  returns 0x00 (0000ms, 0234ms total)
T1C1C 000:442 JLINK_WriteReg(PSP, 0x20002000)  returns 0x00 (0000ms, 0234ms total)
T1C1C 000:442 JLINK_WriteReg(CFBP, 0x00000000)  returns 0x00 (0000ms, 0234ms total)
T1C1C 000:442 JLINK_SetBPEx(Addr = 0x20000000, Type = 0xFFFFFFF2)  returns 0x0000000E (0000ms, 0234ms total)
T1C1C 000:442 JLINK_Go() -- CPU_ReadMem(4 bytes @ 0xE0001000) (0003ms, 0237ms total)
T1C1C 000:445 JLINK_IsHalted()  returns FALSE (0000ms, 0237ms total)
T1C1C 000:448 JLINK_IsHalted() -- CPU_ReadMem(2 bytes @ 0x20000000)  returns TRUE (0007ms, 0244ms total)
T1C1C 000:455 JLINK_ReadReg(R15 (PC))  returns 0x20000000 (0000ms, 0237ms total)
T1C1C 000:455 JLINK_ClrBPEx(BPHandle = 0x0000000E)  returns 0x00 (0000ms, 0237ms total)
T1C1C 000:455 JLINK_ReadReg(R0)  returns 0x00000000 (0000ms, 0237ms total)
T1C1C 000:455 JLINK_WriteReg(R0, 0x00007000)  returns 0x00 (0000ms, 0237ms total)
T1C1C 000:455 JLINK_WriteReg(R1, 0x00001000)  returns 0x00 (0000ms, 0237ms total)
T1C1C 000:455 JLINK_WriteReg(R2, 0x000000FF)  returns 0x00 (0000ms, 0237ms total)
T1C1C 000:455 JLINK_WriteReg(R3, 0x00000000)  returns 0x00 (0000ms, 0237ms total)
T1C1C 000:455 JLINK_WriteReg(R4, 0x00000000)  returns 0x00 (0000ms, 0237ms total)
T1C1C 000:455 JLINK_WriteReg(R5, 0x00000000)  returns 0x00 (0000ms, 0237ms total)
T1C1C 000:455 JLINK_WriteReg(R6, 0x00000000)  returns 0x00 (0000ms, 0237ms total)
T1C1C 000:455 JLINK_WriteReg(R7, 0x00000000)  returns 0x00 (0000ms, 0237ms total)
T1C1C 000:455 JLINK_WriteReg(R8, 0x00000000)  returns 0x00 (0000ms, 0237ms total)
T1C1C 000:455 JLINK_WriteReg(R9, 0x20000224)  returns 0x00 (0000ms, 0237ms total)
T1C1C 000:455 JLINK_WriteReg(R10, 0x00000000)  returns 0x00 (0000ms, 0237ms total)
T1C1C 000:455 JLINK_WriteReg(R11, 0x00000000)  returns 0x00 (0000ms, 0237ms total)
T1C1C 000:455 JLINK_WriteReg(R12, 0x00000000)  returns 0x00 (0000ms, 0237ms total)
T1C1C 000:455 JLINK_WriteReg(R13 (SP), 0x20002000)  returns 0x00 (0000ms, 0237ms total)
T1C1C 000:455 JLINK_WriteReg(R14, 0x20000001)  returns 0x00 (0000ms, 0237ms total)
T1C1C 000:455 JLINK_WriteReg(R15 (PC), 0x20000110)  returns 0x00 (0000ms, 0237ms total)
T1C1C 000:455 JLINK_WriteReg(XPSR, 0x01000000)  returns 0x00 (0000ms, 0237ms total)
T1C1C 000:455 JLINK_WriteReg(MSP, 0x20002000)  returns 0x00 (0000ms, 0237ms total)
T1C1C 000:455 JLINK_WriteReg(PSP, 0x20002000)  returns 0x00 (0000ms, 0237ms total)
T1C1C 000:455 JLINK_WriteReg(CFBP, 0x00000000)  returns 0x00 (0000ms, 0237ms total)
T1C1C 000:455 JLINK_SetBPEx(Addr = 0x20000000, Type = 0xFFFFFFF2)  returns 0x0000000F (0000ms, 0237ms total)
T1C1C 000:455 JLINK_Go() -- CPU_ReadMem(4 bytes @ 0xE0001000) (0005ms, 0242ms total)
T1C1C 000:460 JLINK_IsHalted() -- CPU_ReadMem(2 bytes @ 0x20000000)  returns TRUE (0007ms, 0249ms total)
T1C1C 000:467 JLINK_ReadReg(R15 (PC))  returns 0x20000000 (0000ms, 0242ms total)
T1C1C 000:467 JLINK_ClrBPEx(BPHandle = 0x0000000F)  returns 0x00 (0000ms, 0242ms total)
T1C1C 000:467 JLINK_ReadReg(R0)  returns 0x00000001 (0000ms, 0242ms total)
T1C1C 000:467 JLINK_WriteReg(R0, 0x00007000)  returns 0x00 (0000ms, 0242ms total)
T1C1C 000:467 JLINK_WriteReg(R1, 0x00001000)  returns 0x00 (0000ms, 0242ms total)
T1C1C 000:467 JLINK_WriteReg(R2, 0x000000FF)  returns 0x00 (0000ms, 0242ms total)
T1C1C 000:467 JLINK_WriteReg(R3, 0x00000000)  returns 0x00 (0000ms, 0242ms total)
T1C1C 000:467 JLINK_WriteReg(R4, 0x00000000)  returns 0x00 (0000ms, 0242ms total)
T1C1C 000:467 JLINK_WriteReg(R5, 0x00000000)  returns 0x00 (0000ms, 0242ms total)
T1C1C 000:467 JLINK_WriteReg(R6, 0x00000000)  returns 0x00 (0000ms, 0242ms total)
T1C1C 000:467 JLINK_WriteReg(R7, 0x00000000)  returns 0x00 (0000ms, 0242ms total)
T1C1C 000:467 JLINK_WriteReg(R8, 0x00000000)  returns 0x00 (0000ms, 0242ms total)
T1C1C 000:467 JLINK_WriteReg(R9, 0x20000224)  returns 0x00 (0000ms, 0242ms total)
T1C1C 000:467 JLINK_WriteReg(R10, 0x00000000)  returns 0x00 (0000ms, 0242ms total)
T1C1C 000:467 JLINK_WriteReg(R11, 0x00000000)  returns 0x00 (0000ms, 0242ms total)
T1C1C 000:467 JLINK_WriteReg(R12, 0x00000000)  returns 0x00 (0000ms, 0242ms total)
T1C1C 000:467 JLINK_WriteReg(R13 (SP), 0x20002000)  returns 0x00 (0000ms, 0242ms total)
T1C1C 000:467 JLINK_WriteReg(R14, 0x20000001)  returns 0x00 (0000ms, 0242ms total)
T1C1C 000:467 JLINK_WriteReg(R15 (PC), 0x200000CE)  returns 0x00 (0000ms, 0242ms total)
T1C1C 000:467 JLINK_WriteReg(XPSR, 0x01000000)  returns 0x00 (0000ms, 0242ms total)
T1C1C 000:467 JLINK_WriteReg(MSP, 0x20002000)  returns 0x00 (0000ms, 0242ms total)
T1C1C 000:467 JLINK_WriteReg(PSP, 0x20002000)  returns 0x00 (0000ms, 0242ms total)
T1C1C 000:467 JLINK_WriteReg(CFBP, 0x00000000)  returns 0x00 (0000ms, 0242ms total)
T1C1C 000:467 JLINK_SetBPEx(Addr = 0x20000000, Type = 0xFFFFFFF2)  returns 0x00000010 (0000ms, 0242ms total)
T1C1C 000:467 JLINK_Go() -- CPU_ReadMem(4 bytes @ 0xE0001000) (0003ms, 0245ms total)
T1C1C 000:470 JLINK_IsHalted()  returns FALSE (0001ms, 0246ms total)
T1C1C 000:475 JLINK_IsHalted() -- CPU_ReadMem(2 bytes @ 0x20000000)  returns TRUE (0006ms, 0251ms total)
T1C1C 000:481 JLINK_ReadReg(R15 (PC))  returns 0x20000000 (0000ms, 0245ms total)
T1C1C 000:481 JLINK_ClrBPEx(BPHandle = 0x00000010)  returns 0x00 (0000ms, 0245ms total)
T1C1C 000:481 JLINK_ReadReg(R0)  returns 0x00000000 (0000ms, 0245ms total)
T1C1C 000:481 JLINK_WriteReg(R0, 0x00000001)  returns 0x00 (0000ms, 0245ms total)
T1C1C 000:481 JLINK_WriteReg(R1, 0x00001000)  returns 0x00 (0000ms, 0245ms total)
T1C1C 000:481 JLINK_WriteReg(R2, 0x000000FF)  returns 0x00 (0000ms, 0245ms total)
T1C1C 000:481 JLINK_WriteReg(R3, 0x00000000)  returns 0x00 (0000ms, 0245ms total)
T1C1C 000:481 JLINK_WriteReg(R4, 0x00000000)  returns 0x00 (0000ms, 0245ms total)
T1C1C 000:481 JLINK_WriteReg(R5, 0x00000000)  returns 0x00 (0000ms, 0245ms total)
T1C1C 000:481 JLINK_WriteReg(R6, 0x00000000)  returns 0x00 (0000ms, 0245ms total)
T1C1C 000:481 JLINK_WriteReg(R7, 0x00000000)  returns 0x00 (0000ms, 0245ms total)
T1C1C 000:481 JLINK_WriteReg(R8, 0x00000000)  returns 0x00 (0000ms, 0245ms total)
T1C1C 000:481 JLINK_WriteReg(R9, 0x20000224)  returns 0x00 (0000ms, 0245ms total)
T1C1C 000:481 JLINK_WriteReg(R10, 0x00000000)  returns 0x00 (0000ms, 0245ms total)
T1C1C 000:481 JLINK_WriteReg(R11, 0x00000000)  returns 0x00 (0000ms, 0245ms total)
T1C1C 000:481 JLINK_WriteReg(R12, 0x00000000)  returns 0x00 (0000ms, 0245ms total)
T1C1C 000:481 JLINK_WriteReg(R13 (SP), 0x20002000)  returns 0x00 (0000ms, 0245ms total)
T1C1C 000:481 JLINK_WriteReg(R14, 0x20000001)  returns 0x00 (0000ms, 0245ms total)
T1C1C 000:481 JLINK_WriteReg(R15 (PC), 0x20000084)  returns 0x00 (0000ms, 0245ms total)
T1C1C 000:481 JLINK_WriteReg(XPSR, 0x01000000)  returns 0x00 (0000ms, 0245ms total)
T1C1C 000:481 JLINK_WriteReg(MSP, 0x20002000)  returns 0x00 (0000ms, 0245ms total)
T1C1C 000:481 JLINK_WriteReg(PSP, 0x20002000)  returns 0x00 (0000ms, 0245ms total)
T1C1C 000:481 JLINK_WriteReg(CFBP, 0x00000000)  returns 0x00 (0000ms, 0245ms total)
T1C1C 000:481 JLINK_SetBPEx(Addr = 0x20000000, Type = 0xFFFFFFF2)  returns 0x00000011 (0000ms, 0245ms total)
T1C1C 000:481 JLINK_Go() -- CPU_ReadMem(4 bytes @ 0xE0001000) (0006ms, 0251ms total)
T1C1C 000:487 JLINK_IsHalted() -- CPU_ReadMem(2 bytes @ 0x20000000)  returns TRUE (0007ms, 0258ms total)
T1C1C 000:494 JLINK_ReadReg(R15 (PC))  returns 0x20000000 (0000ms, 0251ms total)
T1C1C 000:494 JLINK_ClrBPEx(BPHandle = 0x00000011)  returns 0x00 (0000ms, 0251ms total)
T1C1C 000:494 JLINK_ReadReg(R0)  returns 0x00000000 (0000ms, 0251ms total)
T1C1C 000:548 JLINK_WriteMem(0x20000000, 0x0228 Bytes, ...) - Data: 00 BE 0A E0 0D 78 2D 06 68 40 08 24 40 00 00 D3 ... -- CPU_WriteMem(552 bytes @ 0x20000000)  returns 0x228 (0009ms, 0260ms total)
T1C1C 000:557 JLINK_WriteReg(R0, 0x00000000)  returns 0x00 (0000ms, 0260ms total)
T1C1C 000:557 JLINK_WriteReg(R1, 0x03D09000)  returns 0x00 (0000ms, 0260ms total)
T1C1C 000:557 JLINK_WriteReg(R2, 0x00000002)  returns 0x00 (0000ms, 0260ms total)
T1C1C 000:557 JLINK_WriteReg(R3, 0x00000000)  returns 0x00 (0000ms, 0260ms total)
T1C1C 000:557 JLINK_WriteReg(R4, 0x00000000)  returns 0x00 (0000ms, 0260ms total)
T1C1C 000:557 JLINK_WriteReg(R5, 0x00000000)  returns 0x00 (0000ms, 0260ms total)
T1C1C 000:557 JLINK_WriteReg(R6, 0x00000000)  returns 0x00 (0000ms, 0260ms total)
T1C1C 000:557 JLINK_WriteReg(R7, 0x00000000)  returns 0x00 (0000ms, 0260ms total)
T1C1C 000:557 JLINK_WriteReg(R8, 0x00000000)  returns 0x00 (0000ms, 0260ms total)
T1C1C 000:557 JLINK_WriteReg(R9, 0x20000224)  returns 0x00 (0000ms, 0260ms total)
T1C1C 000:557 JLINK_WriteReg(R10, 0x00000000)  returns 0x00 (0000ms, 0260ms total)
T1C1C 000:557 JLINK_WriteReg(R11, 0x00000000)  returns 0x00 (0000ms, 0260ms total)
T1C1C 000:557 JLINK_WriteReg(R12, 0x00000000)  returns 0x00 (0000ms, 0260ms total)
T1C1C 000:557 JLINK_WriteReg(R13 (SP), 0x20002000)  returns 0x00 (0000ms, 0260ms total)
T1C1C 000:557 JLINK_WriteReg(R14, 0x20000001)  returns 0x00 (0000ms, 0260ms total)
T1C1C 000:557 JLINK_WriteReg(R15 (PC), 0x2000003C)  returns 0x00 (0000ms, 0260ms total)
T1C1C 000:557 JLINK_WriteReg(XPSR, 0x01000000)  returns 0x00 (0000ms, 0260ms total)
T1C1C 000:557 JLINK_WriteReg(MSP, 0x20002000)  returns 0x00 (0000ms, 0260ms total)
T1C1C 000:557 JLINK_WriteReg(PSP, 0x20002000)  returns 0x00 (0000ms, 0260ms total)
T1C1C 000:557 JLINK_WriteReg(CFBP, 0x00000000)  returns 0x00 (0000ms, 0260ms total)
T1C1C 000:557 JLINK_SetBPEx(Addr = 0x20000000, Type = 0xFFFFFFF2) -- CPU_ReadMem(2 bytes @ 0x20000000)  returns 0x00000012 (0000ms, 0260ms total)
T1C1C 000:557 JLINK_Go() -- CPU_WriteMem(2 bytes @ 0x20000000) -- CPU_ReadMem(4 bytes @ 0xE0001000) (0004ms, 0264ms total)
T1C1C 000:561 JLINK_IsHalted() -- CPU_ReadMem(2 bytes @ 0x20000000)  returns TRUE (0008ms, 0272ms total)
T1C1C 000:569 JLINK_ReadReg(R15 (PC))  returns 0x20000000 (0000ms, 0264ms total)
T1C1C 000:569 JLINK_ClrBPEx(BPHandle = 0x00000012)  returns 0x00 (0000ms, 0264ms total)
T1C1C 000:569 JLINK_ReadReg(R0)  returns 0x00000000 (0000ms, 0264ms total)
T1C1C 000:569 JLINK_WriteMem(0x20000228, 0x0DD8 Bytes, ...) - Data: 98 2A 00 20 15 04 00 00 1D 04 00 00 1F 04 00 00 ... -- CPU_WriteMem(3544 bytes @ 0x20000228)  returns 0xDD8 (0047ms, 0311ms total)
T1C1C 000:616 JLINK_WriteMem(0x20001000, 0x0228 Bytes, ...) - Data: 00 E4 01 40 04 00 FA 05 00 90 D0 03 68 00 00 20 ... -- CPU_WriteMem(552 bytes @ 0x20001000)  returns 0x228 (0009ms, 0320ms total)
T1C1C 000:625 JLINK_WriteReg(R0, 0x00000000)  returns 0x00 (0000ms, 0320ms total)
T1C1C 000:625 JLINK_WriteReg(R1, 0x00001000)  returns 0x00 (0000ms, 0320ms total)
T1C1C 000:625 JLINK_WriteReg(R2, 0x20000228)  returns 0x00 (0000ms, 0320ms total)
T1C1C 000:625 JLINK_WriteReg(R3, 0x00000000)  returns 0x00 (0000ms, 0320ms total)
T1C1C 000:625 JLINK_WriteReg(R4, 0x00000000)  returns 0x00 (0000ms, 0320ms total)
T1C1C 000:625 JLINK_WriteReg(R5, 0x00000000)  returns 0x00 (0000ms, 0320ms total)
T1C1C 000:625 JLINK_WriteReg(R6, 0x00000000)  returns 0x00 (0000ms, 0320ms total)
T1C1C 000:625 JLINK_WriteReg(R7, 0x00000000)  returns 0x00 (0000ms, 0320ms total)
T1C1C 000:625 JLINK_WriteReg(R8, 0x00000000)  returns 0x00 (0000ms, 0320ms total)
T1C1C 000:625 JLINK_WriteReg(R9, 0x20000224)  returns 0x00 (0000ms, 0320ms total)
